     0,8  1,9  2,a  3,b  4,c  5,d  6,e  7,f
00: 0000 0000 0000 0000 0000 0000 0000 0000
08: 0000 0000 0000 0000 0000 0000 0000 0000
10: 0000 0000 0200 8000 0000 003f 00ff 0000
18: 0000 0000 0000 000f 0888 3840 ffff 3f00
20: 372a 1f27 1bcc 18b9 136d 0067 1def 01ef
28: 7fef 0001 0000 0000 0000 0000 0000 0000
30: 0000 0000 0000 0000 0001 0000 0000 0000
38: 0000 02c7 0024 10b9 10b1 ffdd 0023 34c7
40: 2a87 0000 0003 0344 0000 000f 003f 0020
48: 0000 0006 0001 0000 0000 0000 0000 0000
50: 0000 0000 0000 0000 0000 0000 0000 0000
58: 0000 0000 0000 0000 0000 0000 0000 0000
60: 0000 0000 0000 0000 0000 0000 0000 0000
68: 0000 0000 0000 0000 0000 0000 0000 0000
70: 0000 0000 0000 0000 0000 0000 0000 0000
78: 0000 0000 0000 0000 0000 0000 0000 0000
80: 0000 0000 0000 0000 0000 0000 0000 0000
88: 0000 0000 0000 0000 0000 0000 0000 0000
90: 0000 0000 0000 0000 0000 0000 0000 0000
98: 0000 0000 0000 0000 0000 0000 0000 0000
a0: 0000 0000 0000 0000 0000 0000 0000 0000
a8: 0000 0000 0000 0000 0000 0000 0000 0000
b0: 0000 0000 0000 0000 0000 0000 0000 0000
b8: 0000 0000 0000 0000 0000 0000 0000 0000
c0: 0000 0000 0000 0000 0000 0000 0000 0000
c8: 0000 0000 0000 0000 0000 0000 0000 0000
d0: 0000 0000 0000 0000 0000 0000 0000 0000
d8: 0000 0000 0000 0000 0000 0000 0000 0000
e0: 0000 0000 0000 0000 0000 0000 0000 0000
e8: 0000 0000 0000 0000 0000 0000 0000 0000
f0: 0000 0000 0000 0000 0000 0000 0000 0000
f8: 0000 0000 0000 0000 0000 0000 0000 0000